Time [s],Value,Parity Error,Framing Error
0.7262408000,0xB7,,
0.7263268000,0x00,,
0.7264128000,0x00,,
0.7264988000,0x00,,
0.7265849000,0x0A,,
0.7266709000,0x00,,
0.7267569000,0x00,,
0.7268429000,0x00,,
0.7269289000,0x7F,,
0.7270150000,0xFD,,
0.7271010000,0xFF,,
0.7271870000,0xFF,,
0.7272730000,0xFF,,
0.7273590000,0xFF,,
0.7274451000,0xFF,,
0.7275311000,0xFF,,
0.7276171000,0x00,,
0.7277031000,0x00,,
0.7277892000,0x00,,
0.7278752000,0x00,,
0.7279612000,0x00,,
0.7280472000,0x00,,
0.7281333000,0x00,,
0.7282193000,0x00,,
0.7283053000,0x00,,
0.7283913000,0x00,,
0.7284773000,0x00,,
0.7285633000,0x00,,
0.7286494000,0x00,,
0.7287354000,0x00,,
0.7288214000,0x00,,
0.7289075000,0x00,,
0.7289935000,0x00,,
0.7290795000,0x00,,
0.7291656000,0x00,,
0.7292516000,0x00,,
0.7293376000,0x00,,
0.7294236000,0x00,,
0.7295097000,0x00,,
0.7295957000,0x00,,
0.7296817000,0x00,,
0.7297678000,0x00,,
0.7298538000,0x00,,
0.7299398000,0x00,,
0.7300258000,0x00,,
0.7301118000,0x00,,
0.7301978000,0x00,,
0.7302838000,0x00,,
0.7303699000,0x00,,
0.7304559000,0x00,,
0.7305419000,0x00,,
0.7306279000,0x00,,
0.7307139000,0x00,,
0.7307999000,0x00,,
0.7308859000,0x00,,
0.7309719000,0x00,,
0.7310579000,0x00,,
0.7311440000,0x00,,
0.7312300000,0x00,,
0.7313160000,0x00,,
0.7314020000,0x00,,
0.7314880000,0x00,,
0.7315741000,0x00,,
0.7316601000,0x00,,
0.8836644000,0xA6,,
0.8837504000,0x00,,
0.8838364000,0x00,,
0.8839225000,0x00,,
0.8840085000,0x02,,
0.8840945000,0x00,,
0.8841805000,0x00,,
0.8842665000,0x00,,
0.8843525000,0x7F,,
0.8844385000,0xFD,,
0.8845246000,0xFF,,
0.8846106000,0xFF,,
0.8846966000,0xFF,,
0.8847826000,0xFF,,
0.8848686000,0xFF,,
0.8849546000,0xFF,,
0.8850406000,0x00,,
0.8851266000,0x00,,
0.8852126000,0x00,,
0.8852986000,0x00,,
0.8853846000,0x00,,
0.8854707000,0x00,,
0.8855567000,0x00,,
0.8856427000,0x00,,
0.8857287000,0x00,,
0.8858147000,0x00,,
0.8859007000,0x00,,
0.8859867000,0x00,,
0.8860728000,0x00,,
0.8861588000,0x00,,
0.8862448000,0x00,,
0.8863308000,0x00,,
0.8864168000,0x00,,
0.8865029000,0x00,,
0.8865889000,0x00,,
0.8866749000,0x00,,
0.8867610000,0x00,,
0.8868470000,0x00,,
0.8869330000,0x00,,
0.8870190000,0x00,,
0.8871051000,0x00,,
0.8871911000,0x00,,
0.8872771000,0x00,,
0.8873632000,0x00,,
0.8874492000,0x00,,
0.8875352000,0x00,,
0.8876212000,0x00,,
0.8877073000,0x00,,
0.8877933000,0x00,,
0.8878793000,0x00,,
0.8879653000,0x00,,
0.8880514000,0x00,,
0.8881374000,0x00,,
0.8882234000,0x00,,
0.8883094000,0x00,,
0.8883955000,0x00,,
0.8884815000,0x00,,
0.8885675000,0x00,,
0.8886535000,0x00,,
0.8887396000,0x00,,
0.8888256000,0x00,,
0.8889116000,0x00,,
0.8889977000,0x00,,
0.8890837000,0x00,,
0.9103323000,0xA9,,
0.9104183000,0x00,,
0.9105043000,0x00,,
0.9105903000,0x00,,
0.9106764000,0x04,,
0.9107624000,0x00,,
0.9108484000,0x00,,
0.9109344000,0x00,,
0.9110204000,0x28,,
0.9111065000,0xFD,,
0.9111925000,0xFF,,
0.9112785000,0xFF,,
0.9113645000,0xFF,,
0.9114505000,0xFF,,
0.9115365000,0xFF,,
0.9116226000,0xFF,,
0.9117086000,0x00,,
0.9117946000,0x00,,
0.9118806000,0x00,,
0.9119666000,0x00,,
0.9120527000,0x00,,
0.9121387000,0x00,,
0.9122247000,0x00,,
0.9123107000,0x00,,
0.9123967000,0x00,,
0.9124827000,0x00,,
0.9125688000,0x00,,
0.9126548000,0x00,,
0.9127408000,0x00,,
0.9128268000,0x00,,
0.9129128000,0x00,,
0.9129988000,0x00,,
0.9130849000,0x00,,
0.9131709000,0x00,,
0.9132569000,0x00,,
0.9133430000,0x00,,
0.9134290000,0x00,,
0.9135150000,0x00,,
0.9136010000,0x00,,
0.9136870000,0x00,,
0.9137731000,0x00,,
0.9138591000,0x00,,
0.9139451000,0x00,,
0.9140311000,0x00,,
0.9141172000,0x00,,
0.9142032000,0x00,,
0.9142892000,0x00,,
0.9143752000,0x00,,
0.9144612000,0x00,,
0.9145473000,0x00,,
0.9146333000,0x00,,
0.9147193000,0x00,,
0.9148054000,0x00,,
0.9148914000,0x00,,
0.9149774000,0x00,,
0.9150634000,0x00,,
0.9151495000,0x00,,
0.9152355000,0x00,,
0.9153215000,0x00,,
0.9154075000,0x00,,
0.9154935000,0x00,,
0.9155796000,0x00,,
0.9156656000,0x00,,
0.9157516000,0x00,,
0.9372482000,0xB6,,
0.9373342000,0x00,,
0.9374202000,0x00,,
0.9375062000,0x00,,
0.9375922000,0x06,,
0.9376783000,0x00,,
0.9377643000,0x00,,
0.9378503000,0x00,,
0.9379363000,0x32,,
0.9380223000,0x48,,
0.9381083000,0x10,,
0.9381943000,0x0C,,
0.9382804000,0xFF,,
0.9383664000,0xFF,,
0.9384524000,0xFF,,
0.9385384000,0xFF,,
0.9386244000,0x00,,
0.9387104000,0x00,,
0.9387964000,0x00,,
0.9388825000,0x00,,
0.9389685000,0x00,,
0.9390545000,0x00,,
0.9391405000,0x00,,
0.9392265000,0x00,,
0.9393125000,0x00,,
0.9393985000,0x00,,
0.9394845000,0x00,,
0.9395705000,0x00,,
0.9396566000,0x00,,
0.9397426000,0x00,,
0.9398286000,0x00,,
0.9399146000,0x00,,
0.9400006000,0x00,,
0.9400866000,0x00,,
0.9401726000,0x00,,
0.9402587000,0x00,,
0.9403447000,0x00,,
0.9404307000,0x00,,
0.9405167000,0x00,,
0.9406027000,0x00,,
0.9406887000,0x00,,
0.9407747000,0x00,,
0.9408608000,0x00,,
0.9409468000,0x00,,
0.9410328000,0x00,,
0.9411188000,0x00,,
0.9412048000,0x00,,
0.9412908000,0x00,,
0.9413768000,0x00,,
0.9414628000,0x00,,
0.9415488000,0x00,,
0.9416348000,0x00,,
0.9417208000,0x00,,
0.9418068000,0x00,,
0.9418928000,0x00,,
0.9419788000,0x00,,
0.9420648000,0x00,,
0.9421508000,0x00,,
0.9422369000,0x00,,
0.9423229000,0x00,,
0.9424089000,0x00,,
0.9424949000,0x00,,
0.9425809000,0x00,,
0.9426670000,0x00,,
0.9641638000,0xA9,,
0.9642498000,0x00,,
0.9643358000,0x00,,
0.9644219000,0x00,,
0.9645079000,0x08,,
0.9645939000,0x00,,
0.9646800000,0x00,,
0.9647660000,0x00,,
0.9648521000,0x7F,,
0.9649381000,0xFD,,
0.9650241000,0xFF,,
0.9651102000,0xFF,,
0.9651962000,0xFF,,
0.9652822000,0xFF,,
0.9653683000,0xFF,,
0.9654543000,0xFF,,
0.9655403000,0x00,,
0.9656264000,0x00,,
0.9657124000,0x00,,
0.9657984000,0x00,,
0.9658845000,0x00,,
0.9659705000,0x00,,
0.9660565000,0x00,,
0.9661425000,0x00,,
0.9662286000,0x00,,
0.9663146000,0x00,,
0.9664006000,0x00,,
0.9664867000,0x00,,
0.9665727000,0x00,,
0.9666587000,0x00,,
0.9667447000,0x00,,
0.9668307000,0x00,,
0.9669168000,0x00,,
0.9670028000,0x00,,
0.9670888000,0x00,,
0.9671748000,0x00,,
0.9672608000,0x00,,
0.9673469000,0x00,,
0.9674329000,0x00,,
0.9675189000,0x00,,
0.9676049000,0x00,,
0.9676910000,0x00,,
0.9677770000,0x00,,
0.9678630000,0x00,,
0.9679491000,0x00,,
0.9680351000,0x00,,
0.9681211000,0x00,,
0.9682072000,0x00,,
0.9682932000,0x00,,
0.9683792000,0x00,,
0.9684652000,0x00,,
0.9685513000,0x00,,
0.9686373000,0x00,,
0.9687233000,0x00,,
0.9688094000,0x00,,
0.9688954000,0x00,,
0.9689814000,0x00,,
0.9690674000,0x00,,
0.9691535000,0x00,,
0.9692395000,0x00,,
0.9693255000,0x00,,
0.9694116000,0x00,,
0.9694976000,0x00,,
0.9695836000,0x00,,
