Time [s],Value,Parity Error,Framing Error
0.7205072000,0xAE,,
0.7205939000,0x00,,
0.7206806000,0x00,,
0.7207672000,0x00,,
0.7208539000,0x09,,
0.7209406000,0x00,,
0.7210273000,0x00,,
0.7211140000,0x00,,
0.7212007000,0x00,,
0.7212874000,0x00,,
0.7213740000,0x00,,
0.7214607000,0x00,,
0.7215474000,0x00,,
0.7216341000,0x00,,
0.7217207000,0x00,,
0.7218073000,0x00,,
0.7218940000,0x00,,
0.7219807000,0x00,,
0.7220673000,0x00,,
0.7221540000,0x00,,
0.7222406000,0x00,,
0.7223273000,0x00,,
0.7224140000,0x00,,
0.7225006000,0x00,,
0.7225873000,0x00,,
0.7226739000,0x00,,
0.7227605000,0x00,,
0.7228471000,0x00,,
0.7229336000,0x00,,
0.7230202000,0x00,,
0.7231068000,0x00,,
0.7231933000,0x00,,
0.7232799000,0x00,,
0.7233665000,0x00,,
0.7234532000,0x00,,
0.7235398000,0x00,,
0.7236265000,0x00,,
0.7237132000,0x00,,
0.7237998000,0x00,,
0.7238864000,0x00,,
0.7239731000,0x00,,
0.7240597000,0x00,,
0.7241463000,0x00,,
0.7242330000,0x00,,
0.7243196000,0x00,,
0.7244062000,0x00,,
0.7244928000,0x00,,
0.7245795000,0x00,,
0.7246661000,0x00,,
0.7247528000,0x00,,
0.7248395000,0x00,,
0.7249262000,0x00,,
0.7250129000,0x00,,
0.7250996000,0x00,,
0.7251863000,0x00,,
0.7252729000,0x00,,
0.7253596000,0x00,,
0.7254463000,0x00,,
0.7255329000,0x00,,
0.7256195000,0x00,,
0.7257061000,0x00,,
0.7257927000,0x00,,
0.7258792000,0x00,,
0.7259657000,0x00,,
0.8779310000,0xA4,,
0.8780177000,0x00,,
0.8781043000,0x00,,
0.8781909000,0x00,,
0.8782775000,0x01,,
0.8783641000,0x00,,
0.8784508000,0x00,,
0.8785374000,0x00,,
0.8786241000,0x01,,
0.8787107000,0x00,,
0.8787974000,0x00,,
0.8788841000,0x00,,
0.8789707000,0x00,,
0.8790574000,0x00,,
0.8791440000,0x00,,
0.8792306000,0x00,,
0.8793173000,0x00,,
0.8794040000,0x00,,
0.8794906000,0x00,,
0.8795773000,0x00,,
0.8796640000,0x00,,
0.8797506000,0x00,,
0.8798373000,0x00,,
0.8799239000,0x00,,
0.8800105000,0x00,,
0.8800972000,0x00,,
0.8801838000,0x00,,
0.8802704000,0x00,,
0.8803570000,0x00,,
0.8804437000,0x00,,
0.8805303000,0x00,,
0.8806169000,0x00,,
0.8807035000,0x00,,
0.8807902000,0x00,,
0.8808768000,0x00,,
0.8809634000,0x00,,
0.8810501000,0x00,,
0.8811367000,0x00,,
0.8812233000,0x00,,
0.8813100000,0x00,,
0.8813966000,0x00,,
0.8814833000,0x00,,
0.8815700000,0x00,,
0.8816566000,0x00,,
0.8817433000,0x00,,
0.8818300000,0x00,,
0.8819166000,0x00,,
0.8820032000,0x00,,
0.8820898000,0x00,,
0.8821764000,0x00,,
0.8822631000,0x00,,
0.8823497000,0x00,,
0.8824364000,0x00,,
0.8825230000,0x00,,
0.8826096000,0x00,,
0.8826962000,0x00,,
0.8827829000,0x00,,
0.8828696000,0x00,,
0.8829563000,0x00,,
0.8830429000,0x00,,
0.8831296000,0x00,,
0.8832163000,0x00,,
0.8833029000,0x00,,
0.8833896000,0x00,,
0.9046079000,0xA6,,
0.9046944000,0x00,,
0.9047808000,0x00,,
0.9048673000,0x00,,
0.9049538000,0x03,,
0.9050403000,0x00,,
0.9051268000,0x00,,
0.9052133000,0x00,,
0.9052998000,0x00,,
0.9053862000,0x00,,
0.9054727000,0x00,,
0.9055591000,0x00,,
0.9056456000,0x00,,
0.9057320000,0x00,,
0.9058185000,0x00,,
0.9059051000,0x00,,
0.9059916000,0x00,,
0.9060781000,0x00,,
0.9061646000,0x00,,
0.9062511000,0x00,,
0.9063376000,0x00,,
0.9064241000,0x00,,
0.9065106000,0x00,,
0.9065972000,0x00,,
0.9066837000,0x00,,
0.9067702000,0x00,,
0.9068567000,0x00,,
0.9069432000,0x00,,
0.9070296000,0x00,,
0.9071160000,0x00,,
0.9072024000,0x00,,
0.9072888000,0x00,,
0.9073751000,0x00,,
0.9074615000,0x00,,
0.9075479000,0x00,,
0.9076343000,0x00,,
0.9077208000,0x00,,
0.9078072000,0x00,,
0.9078936000,0x00,,
0.9079801000,0x00,,
0.9080666000,0x00,,
0.9081531000,0x00,,
0.9082396000,0x00,,
0.9083261000,0x00,,
0.9084126000,0x00,,
0.9084991000,0x00,,
0.9085856000,0x00,,
0.9086721000,0x00,,
0.9087586000,0x00,,
0.9088451000,0x00,,
0.9089316000,0x00,,
0.9090182000,0x00,,
0.9091047000,0x00,,
0.9091912000,0x00,,
0.9092777000,0x00,,
0.9093642000,0x00,,
0.9094507000,0x00,,
0.9095372000,0x00,,
0.9096237000,0x00,,
0.9097102000,0x00,,
0.9097967000,0x00,,
0.9098832000,0x00,,
0.9099697000,0x00,,
0.9100563000,0x00,,
0.9315115000,0xB1,,
0.9315980000,0x00,,
0.9316845000,0x00,,
0.9317710000,0x00,,
0.9318575000,0x05,,
0.9319441000,0x00,,
0.9320306000,0x00,,
0.9321171000,0x00,,
0.9322036000,0x00,,
0.9322901000,0x00,,
0.9323767000,0x00,,
0.9324632000,0x00,,
0.9325497000,0x00,,
0.9326362000,0x00,,
0.9327227000,0x00,,
0.9328092000,0x00,,
0.9328957000,0x00,,
0.9329822000,0x00,,
0.9330687000,0x00,,
0.9331552000,0x00,,
0.9332417000,0x00,,
0.9333282000,0x00,,
0.9334147000,0x00,,
0.9335012000,0x00,,
0.9335877000,0x00,,
0.9336741000,0x00,,
0.9337606000,0x00,,
0.9338471000,0x00,,
0.9339335000,0x00,,
0.9340200000,0x00,,
0.9341065000,0x00,,
0.9341930000,0x00,,
0.9342795000,0x00,,
0.9343660000,0x00,,
0.9344525000,0x00,,
0.9345390000,0x00,,
0.9346255000,0x00,,
0.9347120000,0x00,,
0.9347985000,0x00,,
0.9348850000,0x00,,
0.9349715000,0x00,,
0.9350580000,0x00,,
0.9351445000,0x00,,
0.9352310000,0x00,,
0.9353175000,0x00,,
0.9354040000,0x00,,
0.9354904000,0x00,,
0.9355769000,0x00,,
0.9356634000,0x00,,
0.9357499000,0x00,,
0.9358363000,0x00,,
0.9359227000,0x00,,
0.9360092000,0x00,,
0.9360957000,0x00,,
0.9361821000,0x00,,
0.9362686000,0x00,,
0.9363551000,0x00,,
0.9364415000,0x00,,
0.9365280000,0x00,,
0.9366145000,0x00,,
0.9367010000,0x00,,
0.9367875000,0x00,,
0.9368740000,0x00,,
0.9369605000,0x00,,
0.9584308000,0xA2,,
0.9585173000,0x00,,
0.9586038000,0x00,,
0.9586903000,0x00,,
0.9587768000,0x07,,
0.9588632000,0x00,,
0.9589497000,0x00,,
0.9590362000,0x00,,
0.9591226000,0x00,,
0.9592091000,0x00,,
0.9592956000,0x00,,
0.9593821000,0x00,,
0.9594686000,0x00,,
0.9595551000,0x00,,
0.9596416000,0x00,,
0.9597281000,0x00,,
0.9598146000,0x00,,
0.9599011000,0x00,,
0.9599876000,0x00,,
0.9600742000,0x00,,
0.9601607000,0x00,,
0.9602472000,0x00,,
0.9603337000,0x00,,
0.9604202000,0x00,,
0.9605066000,0x00,,
0.9605931000,0x00,,
0.9606796000,0x00,,
0.9607661000,0x00,,
0.9608526000,0x00,,
0.9609391000,0x00,,
0.9610256000,0x00,,
0.9611120000,0x00,,
0.9611986000,0x00,,
0.9612851000,0x00,,
0.9613716000,0x00,,
0.9614581000,0x00,,
0.9615446000,0x00,,
0.9616311000,0x00,,
0.9617176000,0x00,,
0.9618041000,0x00,,
0.9618906000,0x00,,
0.9619771000,0x00,,
0.9620636000,0x00,,
0.9621502000,0x00,,
0.9622367000,0x00,,
0.9623232000,0x00,,
0.9624097000,0x00,,
0.9624962000,0x00,,
0.9625827000,0x00,,
0.9626692000,0x00,,
0.9627557000,0x00,,
0.9628422000,0x00,,
0.9629287000,0x00,,
0.9630153000,0x00,,
0.9631018000,0x00,,
0.9631883000,0x00,,
0.9632748000,0x00,,
0.9633613000,0x00,,
0.9634478000,0x00,,
0.9635343000,0x00,,
0.9636207000,0x00,,
0.9637072000,0x00,,
0.9637937000,0x00,,
0.9638803000,0x00,,
